# Reading C:/intelFPGA/17.0/modelsim_ase/tcl/vsim/pref.tcl
# do regfile_run_msim_rtl_verilog.do
# if {[file exists rtl_work]} {
# 	vdel -lib rtl_work -all
# }
# vlib rtl_work
# vmap work rtl_work
# Model Technology ModelSim - Intel FPGA Edition vmap 10.5b Lib Mapping Utility 2016.10 Oct  5 2016
# vmap work rtl_work 
# Copying C:/intelFPGA/17.0/modelsim_ase/win32aloem/../modelsim.ini to modelsim.ini
# Modifying modelsim.ini
# 
# vlog -vlog01compat -work work +incdir+C:/Users/adolf/Desktop/master/550D/project3 {C:/Users/adolf/Desktop/master/550D/project3/decoder_5_32.v}
# Model Technology ModelSim - Intel FPGA Edition vlog 10.5b Compiler 2016.10 Oct  5 2016
# Start time: 21:36:24 on Oct 14,2022
# vlog -reportprogress 300 -vlog01compat -work work "+incdir+C:/Users/adolf/Desktop/master/550D/project3" C:/Users/adolf/Desktop/master/550D/project3/decoder_5_32.v 
# -- Compiling module decoder_5_32
# 
# Top level modules:
# 	decoder_5_32
# End time: 21:36:25 on Oct 14,2022, Elapsed time: 0:00:01
# Errors: 0, Warnings: 0
# vlog -vlog01compat -work work +incdir+C:/Users/adolf/Desktop/master/550D/project3 {C:/Users/adolf/Desktop/master/550D/project3/decoder_2_4.v}
# Model Technology ModelSim - Intel FPGA Edition vlog 10.5b Compiler 2016.10 Oct  5 2016
# Start time: 21:36:25 on Oct 14,2022
# vlog -reportprogress 300 -vlog01compat -work work "+incdir+C:/Users/adolf/Desktop/master/550D/project3" C:/Users/adolf/Desktop/master/550D/project3/decoder_2_4.v 
# -- Compiling module decoder_2_4
# 
# Top level modules:
# 	decoder_2_4
# End time: 21:36:25 on Oct 14,2022, Elapsed time: 0:00:00
# Errors: 0, Warnings: 0
# vlog -vlog01compat -work work +incdir+C:/Users/adolf/Desktop/master/550D/project3 {C:/Users/adolf/Desktop/master/550D/project3/decoder_3_8.v}
# Model Technology ModelSim - Intel FPGA Edition vlog 10.5b Compiler 2016.10 Oct  5 2016
# Start time: 21:36:25 on Oct 14,2022
# vlog -reportprogress 300 -vlog01compat -work work "+incdir+C:/Users/adolf/Desktop/master/550D/project3" C:/Users/adolf/Desktop/master/550D/project3/decoder_3_8.v 
# -- Compiling module decoder_3_8
# 
# Top level modules:
# 	decoder_3_8
# End time: 21:36:25 on Oct 14,2022, Elapsed time: 0:00:00
# Errors: 0, Warnings: 0
# vlog -vlog01compat -work work +incdir+C:/Users/adolf/Desktop/master/550D/project3 {C:/Users/adolf/Desktop/master/550D/project3/tristate.v}
# Model Technology ModelSim - Intel FPGA Edition vlog 10.5b Compiler 2016.10 Oct  5 2016
# Start time: 21:36:25 on Oct 14,2022
# vlog -reportprogress 300 -vlog01compat -work work "+incdir+C:/Users/adolf/Desktop/master/550D/project3" C:/Users/adolf/Desktop/master/550D/project3/tristate.v 
# -- Compiling module tristate
# 
# Top level modules:
# 	tristate
# End time: 21:36:25 on Oct 14,2022, Elapsed time: 0:00:00
# Errors: 0, Warnings: 0
# vlog -vlog01compat -work work +incdir+C:/Users/adolf/Desktop/master/550D/project3 {C:/Users/adolf/Desktop/master/550D/project3/regfile.v}
# Model Technology ModelSim - Intel FPGA Edition vlog 10.5b Compiler 2016.10 Oct  5 2016
# Start time: 21:36:25 on Oct 14,2022
# vlog -reportprogress 300 -vlog01compat -work work "+incdir+C:/Users/adolf/Desktop/master/550D/project3" C:/Users/adolf/Desktop/master/550D/project3/regfile.v 
# -- Compiling module regfile
# 
# Top level modules:
# 	regfile
# End time: 21:36:25 on Oct 14,2022, Elapsed time: 0:00:00
# Errors: 0, Warnings: 0
# vlog -vlog01compat -work work +incdir+C:/Users/adolf/Desktop/master/550D/project3 {C:/Users/adolf/Desktop/master/550D/project3/write_port.v}
# Model Technology ModelSim - Intel FPGA Edition vlog 10.5b Compiler 2016.10 Oct  5 2016
# Start time: 21:36:25 on Oct 14,2022
# vlog -reportprogress 300 -vlog01compat -work work "+incdir+C:/Users/adolf/Desktop/master/550D/project3" C:/Users/adolf/Desktop/master/550D/project3/write_port.v 
# -- Compiling module write_port
# 
# Top level modules:
# 	write_port
# End time: 21:36:25 on Oct 14,2022, Elapsed time: 0:00:00
# Errors: 0, Warnings: 0
# vlog -vlog01compat -work work +incdir+C:/Users/adolf/Desktop/master/550D/project3 {C:/Users/adolf/Desktop/master/550D/project3/read_port.v}
# Model Technology ModelSim - Intel FPGA Edition vlog 10.5b Compiler 2016.10 Oct  5 2016
# Start time: 21:36:25 on Oct 14,2022
# vlog -reportprogress 300 -vlog01compat -work work "+incdir+C:/Users/adolf/Desktop/master/550D/project3" C:/Users/adolf/Desktop/master/550D/project3/read_port.v 
# -- Compiling module read_port
# 
# Top level modules:
# 	read_port
# End time: 21:36:25 on Oct 14,2022, Elapsed time: 0:00:00
# Errors: 0, Warnings: 0
# vlog -vlog01compat -work work +incdir+C:/Users/adolf/Desktop/master/550D/project3 {C:/Users/adolf/Desktop/master/550D/project3/dffe.v}
# Model Technology ModelSim - Intel FPGA Edition vlog 10.5b Compiler 2016.10 Oct  5 2016
# Start time: 21:36:25 on Oct 14,2022
# vlog -reportprogress 300 -vlog01compat -work work "+incdir+C:/Users/adolf/Desktop/master/550D/project3" C:/Users/adolf/Desktop/master/550D/project3/dffe.v 
# -- Compiling module my_dffe
# 
# Top level modules:
# 	my_dffe
# End time: 21:36:25 on Oct 14,2022, Elapsed time: 0:00:00
# Errors: 0, Warnings: 0
# vlog -vlog01compat -work work +incdir+C:/Users/adolf/Desktop/master/550D/project3 {C:/Users/adolf/Desktop/master/550D/project3/register.v}
# Model Technology ModelSim - Intel FPGA Edition vlog 10.5b Compiler 2016.10 Oct  5 2016
# Start time: 21:36:25 on Oct 14,2022
# vlog -reportprogress 300 -vlog01compat -work work "+incdir+C:/Users/adolf/Desktop/master/550D/project3" C:/Users/adolf/Desktop/master/550D/project3/register.v 
# -- Compiling module register
# 
# Top level modules:
# 	register
# End time: 21:36:26 on Oct 14,2022, Elapsed time: 0:00:01
# Errors: 0, Warnings: 0
# 
# vlog -vlog01compat -work work +incdir+C:/Users/adolf/Desktop/master/550D/project3 {C:/Users/adolf/Desktop/master/550D/project3/regfile_tb.v}
# Model Technology ModelSim - Intel FPGA Edition vlog 10.5b Compiler 2016.10 Oct  5 2016
# Start time: 21:36:26 on Oct 14,2022
# vlog -reportprogress 300 -vlog01compat -work work "+incdir+C:/Users/adolf/Desktop/master/550D/project3" C:/Users/adolf/Desktop/master/550D/project3/regfile_tb.v 
# -- Compiling module regfile_tb
# 
# Top level modules:
# 	regfile_tb
# End time: 21:36:26 on Oct 14,2022, Elapsed time: 0:00:00
# Errors: 0, Warnings: 0
# 
# vsim -t 1ps -L altera_ver -L lpm_ver -L sgate_ver -L altera_mf_ver -L altera_lnsim_ver -L cycloneive_ver -L rtl_work -L work -voptargs="+acc"  regfile_tb
# vsim -t 1ps -L altera_ver -L lpm_ver -L sgate_ver -L altera_mf_ver -L altera_lnsim_ver -L cycloneive_ver -L rtl_work -L work -voptargs=""+acc"" regfile_tb 
# Start time: 21:36:26 on Oct 14,2022
# Loading work.regfile_tb
# Loading work.regfile
# Loading work.write_port
# Loading work.decoder_5_32
# Loading work.decoder_2_4
# Loading work.decoder_3_8
# Loading work.register
# Loading work.read_port
# Loading work.tristate
# Loading work.my_dffe
# 
# add wave *
# view structure
# .main_pane.structure.interior.cs.body.struct
# view signals
# .main_pane.objects.interior.cs.body.tree
# run -all
#                    0 << Starting the Simulation >>
#                   80 << Writing register  0 with      57005 >>
#                  160 << Writing register  1 with      57005 >>
# **Error on port A: read 0000XXXX but expected 0000dead.
# **Error on port B: read 0000XXXX but expected 0000dead.
#                  240 << Writing register  2 with      57005 >>
# **Error on port A: read 0000XXXX but expected 0000dead.
# **Error on port B: read 0000XXXX but expected 0000dead.
#                  320 << Writing register  3 with      57005 >>
# **Error on port A: read 0000XXXX but expected 0000dead.
# **Error on port B: read 0000XXXX but expected 0000dead.
#                  400 << Writing register  4 with      57005 >>
# **Error on port A: read 0000XXXX but expected 0000dead.
# **Error on port B: read 0000XXXX but expected 0000dead.
#                  480 << Writing register  5 with      57005 >>
# **Error on port A: read 0000XXXX but expected 0000dead.
# **Error on port B: read 0000XXXX but expected 0000dead.
#                  560 << Writing register  6 with      57005 >>
# **Error on port A: read 0000XXXX but expected 0000dead.
# **Error on port B: read 0000XXXX but expected 0000dead.
#                  640 << Writing register  7 with      57005 >>
# **Error on port A: read 0000XXXX but expected 0000dead.
# **Error on port B: read 0000XXXX but expected 0000dead.
#                  720 << Writing register  8 with      57005 >>
# **Error on port A: read 0000XXXX but expected 0000dead.
# **Error on port B: read 0000XXXX but expected 0000dead.
#                  800 << Writing register  9 with      57005 >>
# **Error on port A: read 0000XXXX but expected 0000dead.
# **Error on port B: read 0000XXXX but expected 0000dead.
#                  880 << Writing register 10 with      57005 >>
# **Error on port A: read 0000XXXX but expected 0000dead.
# **Error on port B: read 0000XXXX but expected 0000dead.
#                  960 << Writing register 11 with      57005 >>
# **Error on port A: read 0000XXXX but expected 0000dead.
# **Error on port B: read 0000XXXX but expected 0000dead.
#                 1040 << Writing register 12 with      57005 >>
# **Error on port A: read 0000XXXX but expected 0000dead.
# **Error on port B: read 0000XXXX but expected 0000dead.
#                 1120 << Writing register 13 with      57005 >>
# **Error on port A: read 0000XXXX but expected 0000dead.
# **Error on port B: read 0000XXXX but expected 0000dead.
#                 1200 << Writing register 14 with      57005 >>
# **Error on port A: read 0000XXXX but expected 0000dead.
# **Error on port B: read 0000XXXX but expected 0000dead.
#                 1280 << Writing register 15 with      57005 >>
# **Error on port A: read 0000XXXX but expected 0000dead.
# **Error on port B: read 0000XXXX but expected 0000dead.
#                 1360 << Writing register 16 with      57005 >>
# **Error on port A: read 0000XXXX but expected 0000dead.
# **Error on port B: read 0000XXXX but expected 0000dead.
#                 1440 << Writing register 17 with     908973 >>
# **Error on port A: read 000XXXXX but expected 000ddead.
# **Error on port B: read 000XXXXX but expected 000ddead.
#                 1520 << Writing register 18 with     908973 >>
# **Error on port A: read 000XXXXX but expected 000ddead.
# **Error on port B: read 000XXXXX but expected 000ddead.
#                 1600 << Writing register 19 with     908973 >>
# **Error on port A: read 000XXXXX but expected 000ddead.
# **Error on port B: read 000XXXXX but expected 000ddead.
#                 1680 << Writing register 20 with     908973 >>
# **Error on port A: read 000XXXXX but expected 000ddead.
# **Error on port B: read 000XXXXX but expected 000ddead.
#                 1760 << Writing register 21 with     908973 >>
# **Error on port A: read 000XXXXX but expected 000ddead.
# **Error on port B: read 000XXXXX but expected 000ddead.
#                 1840 << Writing register 22 with     908973 >>
# **Error on port A: read 000XXXXX but expected 000ddead.
# **Error on port B: read 000XXXXX but expected 000ddead.
#                 1920 << Writing register 23 with     908973 >>
# **Error on port A: read 000XXXXX but expected 000ddead.
# **Error on port B: read 000XXXXX but expected 000ddead.
#                 2000 << Writing register 24 with     908973 >>
# **Error on port A: read 000XXXXX but expected 000ddead.
# **Error on port B: read 000XXXXX but expected 000ddead.
#                 2080 << Writing register 25 with     908973 >>
# **Error on port A: read 000XXXXX but expected 000ddead.
# **Error on port B: read 000XXXXX but expected 000ddead.
#                 2160 << Writing register 26 with     908973 >>
# **Error on port A: read 000XXXXX but expected 000ddead.
# **Error on port B: read 000XXXXX but expected 000ddead.
#                 2240 << Writing register 27 with     908973 >>
# **Error on port A: read 000XXXXX but expected 000ddead.
# **Error on port B: read 000XXXXX but expected 000ddead.
#                 2320 << Writing register 28 with     908973 >>
# **Error on port A: read 000XXXXX but expected 000ddead.
# **Error on port B: read 000XXXXX but expected 000ddead.
#                 2400 << Writing register 29 with     908973 >>
# **Error on port A: read 000XXXXX but expected 000ddead.
# **Error on port B: read 000XXXXX but expected 000ddead.
#                 2480 << Writing register 30 with     908973 >>
# **Error on port A: read 000XXXXX but expected 000ddead.
# **Error on port B: read 000XXXXX but expected 000ddead.
#                 2560 << Writing register 31 with     908973 >>
# **Error on port A: read 000XXXXX but expected 000ddead.
# **Error on port B: read 000XXXXX but expected 000ddead.
# The simulation failed with          62 errors
# ** Note: $stop    : C:/Users/adolf/Desktop/master/550D/project3/regfile_tb.v(66)
#    Time: 2620 ns  Iteration: 1  Instance: /regfile_tb
# Break in Module regfile_tb at C:/Users/adolf/Desktop/master/550D/project3/regfile_tb.v line 66
# End time: 21:36:35 on Oct 14,2022, Elapsed time: 0:00:09
# Errors: 0, Warnings: 0
